
T0520 000:081 SEGGER J-Link V4.68a Log File (0001ms, 0082ms total)
T0520 000:081 DLL Compiled: Apr 12 2013 13:26:50 (0001ms, 0082ms total)
T0520 000:081 Logging started @ 2018-11-24 14:49 (0001ms, 0082ms total)
T0520 000:082 JLINK_SetWarnOutHandler(...) (0000ms, 0082ms total)
T0520 000:082 JLINK_OpenEx(...)
Firmware: J-Link ARM V8 compiled Nov 28 2014 13:44:46
Hardware: V8.00
S/N: 20121126
Feature(s): RDI,FlashDL,FlashBP,JFlash  returns O.K. (0015ms, 0097ms total)
T0520 000:097 JLINK_SetErrorOutHandler(...) (0000ms, 0097ms total)
T0520 000:097 JLINK_ExecCommand("ProjectFile = "C:\Users\xiayinan11\Desktop\中海油的2017系列\VST1012withwatchdog\JLinkSettings.ini"", ...)  returns 0x00 (0002ms, 0099ms total)
T0520 000:106 JLINK_ExecCommand("Device = TMS570LS3137", ...)
                JLINK_AddMirrorAreaEx(Addr = 0x00000000, Size = 0x00000000) (0000ms, 0000ms total)
              Device "TMS570LS3137" selected (3072 KB flash, 192 KB RAM).  returns 0x00 (0022ms, 0121ms total)
T0520 000:128 JLINK_ExecCommand("DisableConnectionTimeout", ...)  returns 0x00 (0000ms, 0121ms total)
T0520 000:128 JLINK_SetEndian(ARM_ENDIAN_BIG)  returns 0x00 (0000ms, 0121ms total)
T0520 000:128 JLINK_GetHardwareVersion()  returns 0x13880 (0001ms, 0122ms total)
T0520 000:129 JLINK_GetDLLVersion()  returns 46801 (0000ms, 0122ms total)
T0520 000:129 JLINK_GetFirmwareString(...) (0000ms, 0122ms total)
T0520 000:154 JLINK_GetDLLVersion()  returns 46801 (0000ms, 0122ms total)
T0520 000:154 JLINK_GetCompileDateTime() (0000ms, 0122ms total)
T0520 000:160 JLINK_GetFirmwareString(...) (0000ms, 0122ms total)
T0520 000:165 JLINK_GetHardwareVersion()  returns 0x13880 (0000ms, 0122ms total)
T0520 000:182 JLINK_TIF_Select(JLINKARM_TIF_JTAG)  returns 0x00 (0000ms, 0122ms total)
T0520 000:182 JLINK_SetSpeed(2000) (0000ms, 0122ms total)
T0520 000:182 JLINK_GetIdData(...) >0x2F8 JTAG>TotalIRLen = 6, IRPrint = 0x01 >0x30 JTAG> >0x210 JTAG>Found TI ICEPick. Enabling device at position 0. >0x5C JTAG> >0x38 JTAG> >0x38 JTAG> >0x48 JTAG> >0x30 JTAG> >0x30 JTAG> >0x48 JTAG> >0x48 JTAG> >0x48 JTAG>ARM AP[0]: 0x44770001, AHB-AP >0x48 JTAG> >0x48 JTAG> >0x48 JTAG>ARM AP[1]: 0x24770002, APB-AP >0x88 JTAG> >0x48 JTAG> >0x48 JTAG> >0x48 JTAG> >0x48 JTAG> >0x30 JTAG> >0x30 JTAG> >0x30 JTAG> >0x30 JTAG> >0x30 JTAG> >0x30 JTAG> >0x48 JTAG> >0x48 JTAG>
 >0x30 JTAG> >0x30 JTAG> >0x48 JTAG> >0x48 JTAG> >0x48 JTAG> >0x30 JTAG> >0x30 JTAG> >0x30 JTAG> >0x30 JTAG> >0x30 JTAG> >0x30 JTAG> >0x48 JTAG> >0x48 JTAG> >0x30 JTAG> >0x30 JTAG> >0x30 JTAG> >0x30 JTAG> >0x30 JTAG> >0x30 JTAG> >0x30 JTAG> >0x30 JTAG> >0x30 JTAG> >0x30 JTAG> >0x48 JTAG> >0x48 JTAG> >0x30 JTAG> >0x30 JTAG> >0x48 JTAG>Found Cortex-R4 r1p36 code breakpoints, 2 data breakpoints >0x48 JTAG> >0x48 JTAG> >0x30 JTAG> >0x30 JTAG> >0x30 JTAG> >0x48 JTAG> >0x30 JTAG> >0x88 JTAG> >0x48 JTAG>
 >0x30 JTAG> >0x30 JTAG> >0x48 JTAG> >0x48 JTAG> >0x48 JTAG> >0x30 JTAG> >0x30 JTAG> >0x30 JTAG> >0x48 JTAG> >0x30 JTAG> >0x88 JTAG> >0x48 JTAG> >0x30 JTAG> >0x30 JTAG> >0x48 JTAG> >0x48 JTAG> >0x48 JTAG> >0x30 JTAG> >0x30 JTAG> >0x48 JTAG> >0x48 JTAG> >0x48 JTAG> >0x30 JTAG> >0x48 JTAG> >0x48 JTAG> >0x30 JTAG> >0x30 JTAG> >0x48 JTAG> >0x48 JTAG> >0x30 JTAG> >0x48 JTAG> >0x48 JTAG> >0x48 JTAG> >0x48 JTAG> >0x30 JTAG> >0x48 JTAG> >0x48 JTAG> >0x30 JTAG> >0x30 JTAG> >0x30 JTAG> >0x30 JTAG> >0x38 JTAG>
 >0x30 JTAG> >0x30 JTAG> >0x30 JTAG> >0x30 JTAG> >0x30 JTAG> >0x30 JTAG> >0x30 JTAG> >0x38 JTAG> >0x30 JTAG> >0x30 JTAG> >0x30 JTAG> >0x38 JTAG> >0x30 JTAG> >0x30 JTAG> >0x30 JTAG> >0x30 JTAG> >0x30 JTAG> >0x30 JTAG> >0x30 JTAG> >0x38 JTAG> >0x30 JTAG> >0x30 JTAG> >0x30 JTAG> >0x38 JTAG> >0x30 JTAG> >0x30 JTAG> >0x30 JTAG> >0x30 JTAG> >0x30 JTAG>Data endian: big >0x48 JTAG> >0x48 JTAG> >0x30 JTAG> >0x48 JTAG> >0x48 JTAG> >0x30 JTAG> >0x38 JTAG> >0x30 JTAG> >0x30 JTAG> >0x30 JTAG> >0x38 JTAG> >0x30 JTAG>
 >0x30 JTAG> >0x30 JTAG> >0x30 JTAG>Main ID register: 0x411FC143 >0x48 JTAG> >0x48 JTAG> >0x30 JTAG> >0x48 JTAG> >0x48 JTAG> >0x30 JTAG> >0x38 JTAG> >0x30 JTAG> >0x30 JTAG> >0x30 JTAG> >0x38 JTAG> >0x30 JTAG> >0x30 JTAG> >0x30 JTAG> >0x30 JTAG>Cache Type register: 0x8003C003 >0x48 JTAG> >0x48 JTAG> >0x30 JTAG> >0x48 JTAG> >0x48 JTAG> >0x30 JTAG> >0x38 JTAG> >0x30 JTAG> >0x30 JTAG> >0x30 JTAG> >0x38 JTAG> >0x30 JTAG> >0x30 JTAG> >0x30 JTAG> >0x30 JTAG>TCM Type register: 0x00010001 >0x48 JTAG> >0x48 JTAG>
 >0x30 JTAG> >0x48 JTAG> >0x48 JTAG> >0x30 JTAG> >0x38 JTAG> >0x30 JTAG> >0x30 JTAG> >0x30 JTAG> >0x38 JTAG> >0x30 JTAG> >0x30 JTAG> >0x30 JTAG> >0x30 JTAG>MPU Type register: 0x00000C00 >0x48 JTAG> >0x48 JTAG> >0x30 JTAG> >0x48 JTAG> >0x48 JTAG> >0x30 JTAG> >0x38 JTAG> >0x30 JTAG> >0x30 JTAG> >0x30 JTAG> >0x38 JTAG> >0x30 JTAG> >0x30 JTAG> >0x30 JTAG> >0x30 JTAG>System control register:  Instruction endian: big  Level-1 instruction cache disabled  Level-1 data cache disabled  MPU disabled
  Branch prediction supported >0x48 JTAG> >0x48 JTAG> >0x30 JTAG> >0x48 JTAG> >0x48 JTAG> >0x30 JTAG> >0x30 JTAG> >0x30 JTAG> >0x38 JTAG> >0x30 JTAG> >0x30 JTAG> >0x30 JTAG> >0x38 JTAG> >0x30 JTAG> >0x30 JTAG> >0x30 JTAG> >0x38 JTAG> >0x30 JTAG> >0x30 JTAG> >0x30 JTAG> >0x30 JTAG> >0x30 JTAG> >0x38 JTAG> >0x30 JTAG> >0x30 JTAG> >0x30 JTAG> >0x38 JTAG> >0x30 JTAG> >0x30 JTAG> >0x30 JTAG> >0x30 JTAG> >0x30 JTAG> >0x38 JTAG> >0x30 JTAG> >0x30 JTAG> >0x30 JTAG> >0x30 JTAG> >0x48 JTAG> >0x48 JTAG> >0x30 JTAG>
 >0x48 JTAG> >0x48 JTAG> >0x48 JTAG> >0x48 JTAG> >0x30 JTAG> >0x48 JTAG> >0x48 JTAG> ScanLen=10 NumDevices=2 aId[0]=0x4BA00477 aIrRead[0]=0 aScanLen[0]=4 aScanRead[0]=0 (0209ms, 0331ms total)
T0520 000:391 JLINK_JTAG_GetDeviceID(DeviceIndex = 0)  returns 0x4BA00477 (0000ms, 0331ms total)
T0520 000:391 JLINK_JTAG_GetDeviceInfo(DeviceIndex = 0)  returns 0x00 (0000ms, 0331ms total)
T0520 000:391 JLINK_JTAG_GetDeviceID(DeviceIndex = 1)  returns 0x4B8A002F (0000ms, 0331ms total)
T0520 000:391 JLINK_JTAG_GetDeviceInfo(DeviceIndex = 1)  returns 0x00 (0000ms, 0331ms total)
T0520 000:391 JLINK_GetDeviceFamily()  returns 12 (0001ms, 0332ms total)
T0520 000:392 JLINK_GetDebugInfo(0x100) -- Value=0x80000000  returns 0x00 (0000ms, 0332ms total)
T0520 000:395 JLINK_GetDeviceFamily()  returns 12 (0000ms, 0332ms total)
T0520 000:395 JLINK_SetResetType(JLINKARM_RESET_TYPE_NORMAL)  returns JLINKARM_RESET_TYPE_NORMAL (0000ms, 0332ms total)
T0520 000:395 JLINK_Reset() >0x48 JTAG> >0x48 JTAG> >0x30 JTAG> >0x48 JTAG> >0x48 JTAG> >0x30 JTAG> >0x30 JTAG> >0x2F8 JTAG>TotalIRLen = 6, IRPrint = 0x01 >0x30 JTAG> >0x210 JTAG>Found TI ICEPick. Enabling device at position 0. >0x5C JTAG> >0x38 JTAG> >0x38 JTAG> >0x48 JTAG> >0x30 JTAG> >0x30 JTAG> >0x48 JTAG> >0x48 JTAG> >0x48 JTAG>ARM AP[0]: 0x44770001, AHB-AP >0x48 JTAG> >0x48 JTAG> >0x48 JTAG>ARM AP[1]: 0x24770002, APB-AP >0x88 JTAG> >0x48 JTAG> >0x48 JTAG> >0x48 JTAG> >0x48 JTAG> >0x30 JTAG>
 >0x30 JTAG> >0x30 JTAG> >0x30 JTAG> >0x30 JTAG> >0x30 JTAG> >0x48 JTAG> >0x48 JTAG> >0x30 JTAG> >0x30 JTAG> >0x48 JTAG> >0x48 JTAG> >0x48 JTAG> >0x30 JTAG> >0x30 JTAG> >0x30 JTAG> >0x30 JTAG> >0x30 JTAG> >0x30 JTAG> >0x48 JTAG> >0x48 JTAG> >0x30 JTAG> >0x30 JTAG> >0x30 JTAG> >0x30 JTAG> >0x30 JTAG> >0x30 JTAG> >0x30 JTAG> >0x30 JTAG> >0x30 JTAG> >0x30 JTAG> >0x48 JTAG> >0x48 JTAG> >0x30 JTAG> >0x30 JTAG> >0x48 JTAG>Found Cortex-R4 r1p36 code breakpoints, 2 data breakpoints >0x48 JTAG> >0x48 JTAG>
 >0x30 JTAG> >0x30 JTAG> >0x30 JTAG> >0x48 JTAG> >0x30 JTAG> >0x88 JTAG> >0x48 JTAG> >0x30 JTAG> >0x30 JTAG> >0x48 JTAG> >0x48 JTAG> >0x48 JTAG> >0x30 JTAG> >0x30 JTAG> >0x30 JTAG> >0x48 JTAG> >0x30 JTAG> >0x88 JTAG> >0x48 JTAG> >0x30 JTAG> >0x30 JTAG> >0x48 JTAG> >0x48 JTAG> >0x48 JTAG> >0x30 JTAG> >0x30 JTAG> >0x48 JTAG> >0x48 JTAG> >0x48 JTAG> >0x30 JTAG> >0x48 JTAG> >0x48 JTAG> >0x30 JTAG> >0x48 JTAG> >0x48 JTAG> >0x30 JTAG> >0x48 JTAG> >0x48 JTAG> >0x48 JTAG> >0x48 JTAG> >0x30 JTAG> >0x48 JTAG>
 >0x48 JTAG> >0x30 JTAG> >0x30 JTAG> >0x30 JTAG> >0x30 JTAG> >0x38 JTAG> >0x30 JTAG> >0x30 JTAG> >0x30 JTAG> >0x30 JTAG> >0x30 JTAG> >0x30 JTAG> >0x30 JTAG> >0x38 JTAG> >0x30 JTAG> >0x30 JTAG> >0x30 JTAG> >0x38 JTAG> >0x30 JTAG> >0x30 JTAG> >0x30 JTAG> >0x30 JTAG> >0x30 JTAG> >0x30 JTAG> >0x30 JTAG> >0x38 JTAG> >0x30 JTAG> >0x30 JTAG> >0x30 JTAG> >0x38 JTAG> >0x30 JTAG> >0x30 JTAG> >0x30 JTAG> >0x30 JTAG> >0x30 JTAG>Data endian: big >0x48 JTAG> >0x48 JTAG> >0x30 JTAG> >0x48 JTAG> >0x48 JTAG> >0x30 JTAG>
 >0x38 JTAG> >0x30 JTAG> >0x30 JTAG> >0x30 JTAG> >0x38 JTAG> >0x30 JTAG> >0x30 JTAG> >0x30 JTAG> >0x30 JTAG>Main ID register: 0x411FC143 >0x48 JTAG> >0x48 JTAG> >0x30 JTAG> >0x48 JTAG> >0x48 JTAG> >0x30 JTAG> >0x38 JTAG> >0x30 JTAG> >0x30 JTAG> >0x30 JTAG> >0x38 JTAG> >0x30 JTAG> >0x30 JTAG> >0x30 JTAG> >0x30 JTAG>Cache Type register: 0x8003C003 >0x48 JTAG> >0x48 JTAG> >0x30 JTAG> >0x48 JTAG> >0x48 JTAG> >0x30 JTAG> >0x38 JTAG> >0x30 JTAG> >0x30 JTAG> >0x30 JTAG> >0x38 JTAG> >0x30 JTAG> >0x30 JTAG>
 >0x30 JTAG> >0x30 JTAG>TCM Type register: 0x00010001 >0x48 JTAG> >0x48 JTAG> >0x30 JTAG> >0x48 JTAG> >0x48 JTAG> >0x30 JTAG> >0x38 JTAG> >0x30 JTAG> >0x30 JTAG> >0x30 JTAG> >0x38 JTAG> >0x30 JTAG> >0x30 JTAG> >0x30 JTAG> >0x30 JTAG>MPU Type register: 0x00000C00 >0x48 JTAG> >0x48 JTAG> >0x30 JTAG> >0x48 JTAG> >0x48 JTAG> >0x30 JTAG> >0x38 JTAG> >0x30 JTAG> >0x30 JTAG> >0x30 JTAG> >0x38 JTAG> >0x30 JTAG> >0x30 JTAG> >0x30 JTAG> >0x30 JTAG>System control register:  Instruction endian: big
  Level-1 instruction cache disabled  Level-1 data cache disabled  MPU disabled  Branch prediction supported >0x48 JTAG> >0x48 JTAG> >0x30 JTAG> >0x48 JTAG> >0x48 JTAG> >0x30 JTAG> >0x30 JTAG> >0x30 JTAG> >0x38 JTAG> >0x30 JTAG> >0x30 JTAG> >0x30 JTAG> >0x38 JTAG> >0x30 JTAG> >0x30 JTAG> >0x30 JTAG> >0x38 JTAG> >0x30 JTAG> >0x30 JTAG> >0x30 JTAG> >0x30 JTAG> >0x30 JTAG> >0x38 JTAG> >0x30 JTAG> >0x30 JTAG> >0x30 JTAG> >0x38 JTAG> >0x30 JTAG> >0x30 JTAG> >0x30 JTAG> >0x30 JTAG> >0x30 JTAG> >0x38 JTAG>
 >0x30 JTAG> >0x30 JTAG> >0x30 JTAG> >0x30 JTAG> >0x48 JTAG> >0x48 JTAG> >0x30 JTAG> >0x48 JTAG> >0x48 JTAG> >0x48 JTAG> >0x48 JTAG> >0x30 JTAG> >0x48 JTAG> >0x58 JTAG> >0x48 JTAG> >0x30 JTAG> >0x30 JTAG> >0x30 JTAG> >0x48 JTAG> >0x30 JTAG> >0x88 JTAG> >0x48 JTAG> >0x30 JTAG> >0x30 JTAG> >0x30 JTAG> >0x48 JTAG> >0x30 JTAG> >0xA0 JTAG> >0x4A JTAG> >0x48 JTAG> >0x48 JTAG> >0x30 JTAG> >0x30 JTAG> >0x30 JTAG> >0x48 JTAG> >0x30 JTAG> (0277ms, 0609ms total)
T0520 000:672 JLINK_Halt()  returns 0x00 (0000ms, 0609ms total)
T0520 000:672 JLINK_IsHalted() -- MA0 is in flash -- Unmirror addr 0x00000000  returns TRUE (0000ms, 0609ms total)
T0520 000:672 JLINK_ReadReg(R0)  returns 0xFFF7F610 (0000ms, 0609ms total)
T0520 000:672 JLINK_ReadReg(R1)  returns 0x00002710 (0000ms, 0609ms total)
T0520 000:672 JLINK_ReadReg(R2)  returns 0x0000026E (0000ms, 0609ms total)
T0520 000:672 JLINK_ReadReg(R3)  returns 0x00000001 (0000ms, 0609ms total)
T0520 000:672 JLINK_ReadReg(R4)  returns 0x00000000 (0001ms, 0610ms total)
T0520 000:673 JLINK_ReadReg(R5)  returns 0x00000000 (0000ms, 0610ms total)
T0520 000:673 JLINK_ReadReg(R6)  returns 0x00000000 (0000ms, 0610ms total)
T0520 000:673 JLINK_ReadReg(R7)  returns 0x00041B0F (0000ms, 0610ms total)
T0520 000:673 JLINK_ReadReg(R15 (PC))  returns 0x00000000 (0000ms, 0610ms total)
T0520 000:673 JLINK_ReadReg(CPSR)  returns 0x000003D3 (0000ms, 0610ms total)
T0520 000:673 JLINK_ReadReg(R8_USR)  returns 0x00000000 (0003ms, 0613ms total)
T0520 000:676 JLINK_ReadReg(R9_USR)  returns 0x00000000 (0000ms, 0613ms total)
T0520 000:676 JLINK_ReadReg(R10_USR)  returns 0x00041B30 (0000ms, 0613ms total)
T0520 000:676 JLINK_ReadReg(R11_USR)  returns 0x00041B30 (0000ms, 0613ms total)
T0520 000:676 JLINK_ReadReg(R12_USR)  returns 0x00000000 (0000ms, 0613ms total)
T0520 000:676 JLINK_ReadReg(R13_USR)  returns 0x080014F0 (0000ms, 0613ms total)
T0520 000:676 JLINK_ReadReg(R14_USR)  returns 0x00006580 (0000ms, 0613ms total)
T0520 000:676 JLINK_ReadReg(R8_FIQ)  returns 0x00000000 (0003ms, 0616ms total)
T0520 000:679 JLINK_ReadReg(R9_FIQ)  returns 0x00000000 (0000ms, 0616ms total)
T0520 000:679 JLINK_ReadReg(R10_FIQ)  returns 0x00000000 (0000ms, 0616ms total)
T0520 000:679 JLINK_ReadReg(R11_FIQ)  returns 0x00000000 (0000ms, 0616ms total)
T0520 000:679 JLINK_ReadReg(R12_FIQ)  returns 0x00000000 (0000ms, 0616ms total)
T0520 000:680 JLINK_ReadReg(R13_FIQ)  returns 0x08001200 (0000ms, 0617ms total)
T0520 000:680 JLINK_ReadReg(R14_FIQ)  returns 0x00000024 (0000ms, 0617ms total)
T0520 000:680 JLINK_ReadReg(SPSR_FIQ)  returns 0x000003D1 (0000ms, 0617ms total)
T0520 000:680 JLINK_ReadReg(R13_IRQ)  returns 0x08001300 (0002ms, 0619ms total)
T0520 000:682 JLINK_ReadReg(R14_IRQ)  returns 0x00006C74 (0000ms, 0619ms total)
T0520 000:682 JLINK_ReadReg(SPSR_IRQ)  returns 0x8000031F (0000ms, 0619ms total)
T0520 000:682 JLINK_ReadReg(R13_SVC)  returns 0x08001100 (0002ms, 0621ms total)
T0520 000:684 JLINK_ReadReg(R14_SVC)  returns 0x00000024 (0000ms, 0621ms total)
T0520 000:684 JLINK_ReadReg(SPSR_SVC)  returns 0x000003D3 (0000ms, 0621ms total)
T0520 000:684 JLINK_ReadReg(R13_ABT)  returns 0x08001400 (0002ms, 0623ms total)
T0520 000:686 JLINK_ReadReg(R14_ABT)  returns 0x0003F18C (0000ms, 0623ms total)
T0520 000:686 JLINK_ReadReg(SPSR_ABT)  returns 0x600003DF (0000ms, 0623ms total)
T0520 000:686 JLINK_ReadReg(R13_UND)  returns 0x08001500 (0002ms, 0625ms total)
T0520 000:688 JLINK_ReadReg(R14_UND)  returns 0x00000024 (0000ms, 0625ms total)
T0520 000:688 JLINK_ReadReg(SPSR_UND)  returns 0x000003DB (0000ms, 0625ms total)
T0520 000:688 JLINK_ReadReg(FPSCR)  returns 0x000003DB (0031ms, 0656ms total)
T0520 000:719 JLINK_ReadReg(FPS0)  returns 0x000003DB (0000ms, 0656ms total)
T0520 000:719 JLINK_ReadReg(FPS1)  returns 0x000003DB (0000ms, 0656ms total)
T0520 000:719 JLINK_ReadReg(FPS2)  returns 0x000003DB (0000ms, 0656ms total)
T0520 000:719 JLINK_ReadReg(FPS3)  returns 0x000003DB (0000ms, 0656ms total)
T0520 000:719 JLINK_ReadReg(FPS4)  returns 0x000003DB (0000ms, 0656ms total)
T0520 000:719 JLINK_ReadReg(FPS5)  returns 0x000003DB (0000ms, 0656ms total)
T0520 000:719 JLINK_ReadReg(FPS6)  returns 0x000003DB (0000ms, 0656ms total)
T0520 000:719 JLINK_ReadReg(FPS7)  returns 0x000003DB (0000ms, 0656ms total)
T0520 000:719 JLINK_ReadReg(FPS8)  returns 0x000003DB (0000ms, 0656ms total)
T0520 000:719 JLINK_ReadReg(FPS9)  returns 0x000003DB (0000ms, 0656ms total)
T0520 000:719 JLINK_ReadReg(FPS10)  returns 0x000003DB (0000ms, 0656ms total)
T0520 000:719 JLINK_ReadReg(FPS11)  returns 0x000003DB (0000ms, 0656ms total)
T0520 000:719 JLINK_ReadReg(FPS12)  returns 0x000003DB (0000ms, 0656ms total)
T0520 000:719 JLINK_ReadReg(FPS13)  returns 0x000003DB (0000ms, 0656ms total)
T0520 000:719 JLINK_ReadReg(FPS14)  returns 0x000003DB (0000ms, 0656ms total)
T0520 000:719 JLINK_ReadReg(FPS15)  returns 0x000003DB (0000ms, 0656ms total)
T0520 000:719 JLINK_ReadReg(FPS16)  returns 0x000003DB (0000ms, 0656ms total)
T0520 000:719 JLINK_ReadReg(FPS17)  returns 0x000003DB (0000ms, 0656ms total)
T0520 000:719 JLINK_ReadReg(FPS18)  returns 0x000003DB (0000ms, 0656ms total)
T0520 000:719 JLINK_ReadReg(FPS19)  returns 0x000003DB (0001ms, 0657ms total)
T0520 000:720 JLINK_ReadReg(FPS20)  returns 0x000003DB (0000ms, 0657ms total)
T0520 000:720 JLINK_ReadReg(FPS21)  returns 0x000003DB (0000ms, 0657ms total)
T0520 000:720 JLINK_ReadReg(FPS22)  returns 0x000003DB (0000ms, 0657ms total)
T0520 000:720 JLINK_ReadReg(FPS23)  returns 0x000003DB (0000ms, 0657ms total)
T0520 000:720 JLINK_ReadReg(FPS24)  returns 0x000003DB (0000ms, 0657ms total)
T0520 000:720 JLINK_ReadReg(FPS25)  returns 0x000003DB (0000ms, 0657ms total)
T0520 000:720 JLINK_ReadReg(FPS26)  returns 0x000003DB (0000ms, 0657ms total)
T0520 000:720 JLINK_ReadReg(FPS27)  returns 0x000003DB (0000ms, 0657ms total)
T0520 000:720 JLINK_ReadReg(FPS28)  returns 0x000003DB (0000ms, 0657ms total)
T0520 000:720 JLINK_ReadReg(FPS29)  returns 0x000003DB (0000ms, 0657ms total)
T0520 000:720 JLINK_ReadReg(FPS30)  returns 0x000003DB (0000ms, 0657ms total)
T0520 000:720 JLINK_ReadReg(FPS31)  returns 0x000003DB (0000ms, 0657ms total)
T0520 000:733 JLINK_GetHWStatus(...)  returns 0x00 (0001ms, 0658ms total)
T0520 000:762 JLINK_GetNumBPUnits(Type = 0xFFFFFF00)  returns 0x06 (0000ms, 0658ms total)
T0520 000:762 JLINK_GetNumBPUnits(Type = 0xF0)  returns 0x2000 (0000ms, 0658ms total)
T0520 000:762 JLINK_GetNumWPUnits()  returns 0x02 (0000ms, 0658ms total)
T0520 000:773 JLINK_GetSpeed()  returns 0x7D0 (0001ms, 0659ms total)
T0520 000:780 JLINK_Halt()  returns 0x00 (0001ms, 0660ms total)
T0520 000:781 JLINK_IsHalted() -- Unmirror addr 0x00000000  returns TRUE (0000ms, 0660ms total)
T0520 000:788 JLINK_WriteMem(0x08000000, 0x140C Bytes, ...) -- Data:  EA FF FF FE EA 00 00 09 E5 D1 C0 00 E0 20 0C 0C ... -- CPU_WriteMem(5132 bytes @ 0x08000000)  returns 0x140C (0038ms, 0698ms total)
T0520 000:826 JLINK_WriteReg(R0, 0x00000000)  returns 0x00 (0000ms, 0698ms total)
T0520 000:827 JLINK_WriteReg(R1, 0x00F42400)  returns 0x00 (0000ms, 0699ms total)
T0520 000:827 JLINK_WriteReg(R2, 0x00000001)  returns 0x00 (0000ms, 0699ms total)
T0520 000:827 JLINK_WriteReg(R3, 0x00000001)  returns 0x00 (0000ms, 0699ms total)
T0520 000:827 JLINK_WriteReg(R4, 0x00000000)  returns 0x00 (0000ms, 0699ms total)
T0520 000:827 JLINK_WriteReg(R5, 0x00000000)  returns 0x00 (0000ms, 0699ms total)
T0520 000:827 JLINK_WriteReg(R6, 0x00000000)  returns 0x00 (0000ms, 0699ms total)
T0520 000:827 JLINK_WriteReg(R7, 0x00041B0F)  returns 0x00 (0000ms, 0699ms total)
T0520 000:827 JLINK_WriteReg(R15 (PC), 0x0800003C)  returns 0x00 (0000ms, 0699ms total)
T0520 000:828 JLINK_WriteReg(CPSR, 0x000002D3)  returns 0x00 (0000ms, 0699ms total)
T0520 000:828 JLINK_WriteReg(R8_USR, 0x00000000)  returns 0x00 (0000ms, 0699ms total)
T0520 000:828 JLINK_WriteReg(R9_USR, 0x08001408)  returns 0x00 (0000ms, 0699ms total)
T0520 000:828 JLINK_WriteReg(R10_USR, 0x00041B30)  returns 0x00 (0000ms, 0699ms total)
T0520 000:828 JLINK_WriteReg(R11_USR, 0x00041B30)  returns 0x00 (0000ms, 0699ms total)
T0520 000:828 JLINK_WriteReg(R12_USR, 0x00000000)  returns 0x00 (0000ms, 0699ms total)
T0520 000:828 JLINK_WriteReg(R13_USR, 0x08009000)  returns 0x00 (0000ms, 0699ms total)
T0520 000:828 JLINK_WriteReg(R14_USR, 0x08000000)  returns 0x00 (0000ms, 0699ms total)
T0520 000:828 JLINK_WriteReg(R8_FIQ, 0x00000000)  returns 0x00 (0001ms, 0700ms total)
T0520 000:829 JLINK_WriteReg(R9_FIQ, 0x00000000)  returns 0x00 (0000ms, 0700ms total)
T0520 000:829 JLINK_WriteReg(R10_FIQ, 0x00000000)  returns 0x00 (0000ms, 0700ms total)
T0520 000:829 JLINK_WriteReg(R11_FIQ, 0x00000000)  returns 0x00 (0000ms, 0700ms total)
T0520 000:829 JLINK_WriteReg(R12_FIQ, 0x00000000)  returns 0x00 (0000ms, 0700ms total)
T0520 000:829 JLINK_WriteReg(R13_FIQ, 0x08001200)  returns 0x00 (0000ms, 0700ms total)
T0520 000:829 JLINK_WriteReg(R14_FIQ, 0x00000024)  returns 0x00 (0000ms, 0700ms total)
T0520 000:829 JLINK_WriteReg(SPSR_FIQ, 0x000003D1)  returns 0x00 (0000ms, 0700ms total)
T0520 000:829 JLINK_WriteReg(R13_IRQ, 0x08001300)  returns 0x00 (0001ms, 0701ms total)
T0520 000:830 JLINK_WriteReg(R14_IRQ, 0x00006C74)  returns 0x00 (0000ms, 0701ms total)
T0520 000:830 JLINK_WriteReg(SPSR_IRQ, 0x8000031F)  returns 0x00 (0000ms, 0701ms total)
T0520 000:830 JLINK_WriteReg(R13_SVC, 0x08009000)  returns 0x00 (0000ms, 0701ms total)
T0520 000:830 JLINK_WriteReg(R14_SVC, 0x08000000)  returns 0x00 (0000ms, 0701ms total)
T0520 000:830 JLINK_WriteReg(SPSR_SVC, 0x000003D3)  returns 0x00 (0000ms, 0701ms total)
T0520 000:830 JLINK_WriteReg(R13_ABT, 0x08001400)  returns 0x00 (0000ms, 0701ms total)
T0520 000:830 JLINK_WriteReg(R14_ABT, 0x0003F18C)  returns 0x00 (0000ms, 0701ms total)
T0520 000:830 JLINK_WriteReg(SPSR_ABT, 0x600003DF)  returns 0x00 (0000ms, 0701ms total)
T0520 000:831 JLINK_WriteReg(R13_UND, 0x08001500)  returns 0x00 (0000ms, 0702ms total)
T0520 000:831 JLINK_WriteReg(R14_UND, 0x00000024)  returns 0x00 (0000ms, 0702ms total)
T0520 000:831 JLINK_WriteReg(SPSR_UND, 0x000003DB)  returns 0x00 (0000ms, 0702ms total)
T0520 000:831 JLINK_SetBPEx(Addr = 0x08000000, Type = 0xFFFFFFF1)  returns 0x00000001 (0000ms, 0702ms total)
T0520 000:831 JLINK_Go() >0x88 JTAG> >0x48 JTAG> >0x30 JTAG> >0x30 JTAG> >0x30 JTAG> >0x30 JTAG> >0x48 JTAG> >0x48 JTAG> >0x30 JTAG> >0x30 JTAG> >0x30 JTAG> >0x48 JTAG> >0x30 JTAG> >0x88 JTAG> >0x48 JTAG> >0x30 JTAG> >0x30 JTAG> >0x30 JTAG> >0x48 JTAG> >0x30 JTAG> >0x88 JTAG> >0x48 JTAG> >0x30 JTAG> >0x30 JTAG> >0x30 JTAG> >0x48 JTAG> >0x30 JTAG> >0x88 JTAG> >0x48 JTAG> >0x30 JTAG> >0x30 JTAG> >0x30 JTAG> >0x48 JTAG> >0x30 JTAG> >0x88 JTAG> >0x48 JTAG> >0x30 JTAG> >0x30 JTAG> >0x30 JTAG> >0x48 JTAG>
 >0x30 JTAG> -- Invalidate MA0 status (0038ms, 0740ms total)
T0520 000:869 JLINK_IsHalted()  returns TRUE (0005ms, 0745ms total)
T0520 000:874 JLINK_ReadReg(R15 (PC))  returns 0x08000000 (0000ms, 0740ms total)
T0520 000:874 JLINK_ClrBPEx(BPHandle = 0x00000001)  returns 0x00 (0000ms, 0740ms total)
T0520 000:874 JLINK_ReadReg(R0)  returns 0x00000000 (0000ms, 0740ms total)
T0520 000:875 JLINK_WriteReg(R0, 0x00000000)  returns 0x00 (0000ms, 0740ms total)
T0520 000:875 JLINK_WriteReg(R1, 0x00008000)  returns 0x00 (0001ms, 0741ms total)
T0520 000:876 JLINK_WriteReg(R2, 0x000000FF)  returns 0x00 (0000ms, 0741ms total)
T0520 000:876 JLINK_WriteReg(R3, 0x00000001)  returns 0x00 (0000ms, 0741ms total)
T0520 000:876 JLINK_WriteReg(R4, 0x00000000)  returns 0x00 (0000ms, 0741ms total)
T0520 000:876 JLINK_WriteReg(R5, 0x00000000)  returns 0x00 (0000ms, 0741ms total)
T0520 000:876 JLINK_WriteReg(R6, 0x00000000)  returns 0x00 (0000ms, 0741ms total)
T0520 000:876 JLINK_WriteReg(R7, 0x00041B0F)  returns 0x00 (0000ms, 0741ms total)
T0520 000:876 JLINK_WriteReg(R15 (PC), 0x08000074)  returns 0x00 (0000ms, 0741ms total)
T0520 000:876 JLINK_WriteReg(CPSR, 0x000002D3)  returns 0x00 (0000ms, 0741ms total)
T0520 000:877 JLINK_WriteReg(R8_USR, 0x00000000)  returns 0x00 (0000ms, 0741ms total)
T0520 000:877 JLINK_WriteReg(R9_USR, 0x08001408)  returns 0x00 (0000ms, 0741ms total)
T0520 000:877 JLINK_WriteReg(R10_USR, 0x00041B30)  returns 0x00 (0000ms, 0741ms total)
T0520 000:877 JLINK_WriteReg(R11_USR, 0x00041B30)  returns 0x00 (0000ms, 0741ms total)
T0520 000:877 JLINK_WriteReg(R12_USR, 0x00000000)  returns 0x00 (0000ms, 0741ms total)
T0520 000:877 JLINK_WriteReg(R13_USR, 0x08009000)  returns 0x00 (0000ms, 0741ms total)
T0520 000:877 JLINK_WriteReg(R14_USR, 0x08000000)  returns 0x00 (0000ms, 0741ms total)
T0520 000:877 JLINK_WriteReg(R8_FIQ, 0x00000000)  returns 0x00 (0000ms, 0741ms total)
T0520 000:877 JLINK_WriteReg(R9_FIQ, 0x00000000)  returns 0x00 (0001ms, 0742ms total)
T0520 000:878 JLINK_WriteReg(R10_FIQ, 0x00000000)  returns 0x00 (0000ms, 0742ms total)
T0520 000:878 JLINK_WriteReg(R11_FIQ, 0x00000000)  returns 0x00 (0000ms, 0742ms total)
T0520 000:878 JLINK_WriteReg(R12_FIQ, 0x00000000)  returns 0x00 (0000ms, 0742ms total)
T0520 000:878 JLINK_WriteReg(R13_FIQ, 0x08001200)  returns 0x00 (0000ms, 0742ms total)
T0520 000:878 JLINK_WriteReg(R14_FIQ, 0x00000024)  returns 0x00 (0000ms, 0742ms total)
T0520 000:878 JLINK_WriteReg(SPSR_FIQ, 0x000003D1)  returns 0x00 (0000ms, 0742ms total)
T0520 000:878 JLINK_WriteReg(R13_IRQ, 0x08001300)  returns 0x00 (0000ms, 0742ms total)
T0520 000:878 JLINK_WriteReg(R14_IRQ, 0x00006C74)  returns 0x00 (0001ms, 0743ms total)
T0520 000:879 JLINK_WriteReg(SPSR_IRQ, 0x8000031F)  returns 0x00 (0000ms, 0743ms total)
T0520 000:879 JLINK_WriteReg(R13_SVC, 0x08009000)  returns 0x00 (0000ms, 0743ms total)
T0520 000:879 JLINK_WriteReg(R14_SVC, 0x08000000)  returns 0x00 (0000ms, 0743ms total)
T0520 000:879 JLINK_WriteReg(SPSR_SVC, 0x000003D3)  returns 0x00 (0000ms, 0743ms total)
T0520 000:879 JLINK_WriteReg(R13_ABT, 0x08001400)  returns 0x00 (0000ms, 0743ms total)
T0520 000:879 JLINK_WriteReg(R14_ABT, 0x0003F18C)  returns 0x00 (0000ms, 0743ms total)
T0520 000:879 JLINK_WriteReg(SPSR_ABT, 0x600003DF)  returns 0x00 (0000ms, 0743ms total)
T0520 000:879 JLINK_WriteReg(R13_UND, 0x08001500)  returns 0x00 (0000ms, 0743ms total)
T0520 000:880 JLINK_WriteReg(R14_UND, 0x00000024)  returns 0x00 (0000ms, 0744ms total)
T0520 000:880 JLINK_WriteReg(SPSR_UND, 0x000003DB)  returns 0x00 (0000ms, 0744ms total)
T0520 000:880 JLINK_SetBPEx(Addr = 0x08000000, Type = 0xFFFFFFF1)  returns 0x00000002 (0000ms, 0744ms total)
T0520 000:880 JLINK_Go() >0x88 JTAG> >0x48 JTAG> >0x30 JTAG> >0x30 JTAG> >0x30 JTAG> >0x30 JTAG> >0x48 JTAG> >0x48 JTAG> >0x30 JTAG> >0x30 JTAG> >0x30 JTAG> >0x48 JTAG> >0x30 JTAG> >0x88 JTAG> >0x48 JTAG> >0x30 JTAG> >0x30 JTAG> >0x30 JTAG> >0x48 JTAG> >0x30 JTAG> >0x88 JTAG> >0x48 JTAG> >0x30 JTAG> >0x30 JTAG> >0x30 JTAG> >0x48 JTAG> >0x30 JTAG> >0x88 JTAG> >0x48 JTAG> >0x30 JTAG> >0x30 JTAG> >0x30 JTAG> >0x48 JTAG> >0x30 JTAG> >0x88 JTAG> >0x48 JTAG> >0x30 JTAG> >0x30 JTAG> >0x30 JTAG> >0x48 JTAG>
 >0x30 JTAG> (0043ms, 0787ms total)
T0520 000:923 JLINK_IsHalted()  returns TRUE (0005ms, 0792ms total)
T0520 000:928 JLINK_ReadReg(R15 (PC))  returns 0x08000000 (0000ms, 0787ms total)
T0520 000:928 JLINK_ClrBPEx(BPHandle = 0x00000002)  returns 0x00 (0000ms, 0787ms total)
T0520 000:928 JLINK_ReadReg(R0)  returns 0x00000001 (0000ms, 0787ms total)
T0520 000:928 JLINK_WriteReg(R0, 0x00000000)  returns 0x00 (0000ms, 0787ms total)
T0520 000:928 JLINK_WriteReg(R1, 0x00008000)  returns 0x00 (0000ms, 0787ms total)
T0520 000:929 JLINK_WriteReg(R2, 0x000000FF)  returns 0x00 (0000ms, 0787ms total)
T0520 000:929 JLINK_WriteReg(R3, 0x00000001)  returns 0x00 (0000ms, 0787ms total)
T0520 000:929 JLINK_WriteReg(R4, 0x00000000)  returns 0x00 (0000ms, 0787ms total)
T0520 000:929 JLINK_WriteReg(R5, 0x00000000)  returns 0x00 (0000ms, 0787ms total)
T0520 000:929 JLINK_WriteReg(R6, 0x00000000)  returns 0x00 (0000ms, 0787ms total)
T0520 000:929 JLINK_WriteReg(R7, 0x00041B0F)  returns 0x00 (0000ms, 0787ms total)
T0520 000:929 JLINK_WriteReg(R15 (PC), 0x080000B4)  returns 0x00 (0000ms, 0787ms total)
T0520 000:929 JLINK_WriteReg(CPSR, 0x000002D3)  returns 0x00 (0000ms, 0787ms total)
T0520 000:929 JLINK_WriteReg(R8_USR, 0x00000000)  returns 0x00 (0001ms, 0788ms total)
T0520 000:930 JLINK_WriteReg(R9_USR, 0x08001408)  returns 0x00 (0000ms, 0788ms total)
T0520 000:930 JLINK_WriteReg(R10_USR, 0x00041B30)  returns 0x00 (0000ms, 0788ms total)
T0520 000:930 JLINK_WriteReg(R11_USR, 0x00041B30)  returns 0x00 (0000ms, 0788ms total)
T0520 000:930 JLINK_WriteReg(R12_USR, 0x00000000)  returns 0x00 (0000ms, 0788ms total)
T0520 000:930 JLINK_WriteReg(R13_USR, 0x08009000)  returns 0x00 (0000ms, 0788ms total)
T0520 000:930 JLINK_WriteReg(R14_USR, 0x08000000)  returns 0x00 (0000ms, 0788ms total)
T0520 000:930 JLINK_WriteReg(R8_FIQ, 0x00000000)  returns 0x00 (0000ms, 0788ms total)
T0520 000:930 JLINK_WriteReg(R9_FIQ, 0x00000000)  returns 0x00 (0001ms, 0789ms total)
T0520 000:931 JLINK_WriteReg(R10_FIQ, 0x00000000)  returns 0x00 (0000ms, 0789ms total)
T0520 000:931 JLINK_WriteReg(R11_FIQ, 0x00000000)  returns 0x00 (0000ms, 0789ms total)
T0520 000:931 JLINK_WriteReg(R12_FIQ, 0x00000000)  returns 0x00 (0000ms, 0789ms total)
T0520 000:931 JLINK_WriteReg(R13_FIQ, 0x08001200)  returns 0x00 (0000ms, 0789ms total)
T0520 000:931 JLINK_WriteReg(R14_FIQ, 0x00000024)  returns 0x00 (0000ms, 0789ms total)
T0520 000:931 JLINK_WriteReg(SPSR_FIQ, 0x000003D1)  returns 0x00 (0000ms, 0789ms total)
T0520 000:931 JLINK_WriteReg(R13_IRQ, 0x08001300)  returns 0x00 (0000ms, 0789ms total)
T0520 000:931 JLINK_WriteReg(R14_IRQ, 0x00006C74)  returns 0x00 (0001ms, 0790ms total)
T0520 000:932 JLINK_WriteReg(SPSR_IRQ, 0x8000031F)  returns 0x00 (0000ms, 0790ms total)
T0520 000:932 JLINK_WriteReg(R13_SVC, 0x08009000)  returns 0x00 (0000ms, 0790ms total)
T0520 000:932 JLINK_WriteReg(R14_SVC, 0x08000000)  returns 0x00 (0000ms, 0790ms total)
T0520 000:932 JLINK_WriteReg(SPSR_SVC, 0x000003D3)  returns 0x00 (0000ms, 0790ms total)
T0520 000:932 JLINK_WriteReg(R13_ABT, 0x08001400)  returns 0x00 (0000ms, 0790ms total)
T0520 000:932 JLINK_WriteReg(R14_ABT, 0x0003F18C)  returns 0x00 (0000ms, 0790ms total)
T0520 000:932 JLINK_WriteReg(SPSR_ABT, 0x600003DF)  returns 0x00 (0000ms, 0790ms total)
T0520 000:932 JLINK_WriteReg(R13_UND, 0x08001500)  returns 0x00 (0001ms, 0791ms total)
T0520 000:933 JLINK_WriteReg(R14_UND, 0x00000024)  returns 0x00 (0000ms, 0791ms total)
T0520 000:933 JLINK_WriteReg(SPSR_UND, 0x000003DB)  returns 0x00 (0000ms, 0791ms total)
T0520 000:933 JLINK_SetBPEx(Addr = 0x08000000, Type = 0xFFFFFFF1)  returns 0x00000003 (0000ms, 0791ms total)
T0520 000:933 JLINK_Go() >0x88 JTAG> >0x48 JTAG> >0x30 JTAG> >0x30 JTAG> >0x30 JTAG> >0x30 JTAG> >0x48 JTAG> >0x48 JTAG> >0x30 JTAG> >0x30 JTAG> >0x30 JTAG> >0x48 JTAG> >0x30 JTAG> >0x88 JTAG> >0x48 JTAG> >0x30 JTAG> >0x30 JTAG> >0x30 JTAG> >0x48 JTAG> >0x30 JTAG> >0x88 JTAG> >0x48 JTAG> >0x30 JTAG> >0x30 JTAG> >0x30 JTAG> >0x48 JTAG> >0x30 JTAG> >0x88 JTAG> >0x48 JTAG> >0x30 JTAG> >0x30 JTAG> >0x30 JTAG> >0x48 JTAG> >0x30 JTAG> >0x88 JTAG> >0x48 JTAG> >0x30 JTAG> >0x30 JTAG> >0x30 JTAG> >0x48 JTAG>
 >0x30 JTAG> (0045ms, 0836ms total)
T0520 000:978 JLINK_IsHalted()  returns FALSE (0001ms, 0837ms total)
T0520 001:116 JLINK_IsHalted()  returns TRUE (0005ms, 0841ms total)
T0520 001:121 JLINK_ReadReg(R15 (PC))  returns 0x08000000 (0000ms, 0836ms total)
T0520 001:121 JLINK_ClrBPEx(BPHandle = 0x00000003)  returns 0x00 (0000ms, 0836ms total)
T0520 001:121 JLINK_ReadReg(R0)  returns 0x00000000 (0000ms, 0836ms total)
T0520 001:122 JLINK_WriteReg(R0, 0x00008000)  returns 0x00 (0000ms, 0836ms total)
T0520 001:122 JLINK_WriteReg(R1, 0x00008000)  returns 0x00 (0000ms, 0836ms total)
T0520 001:122 JLINK_WriteReg(R2, 0x000000FF)  returns 0x00 (0000ms, 0836ms total)
T0520 001:122 JLINK_WriteReg(R3, 0x00000001)  returns 0x00 (0000ms, 0836ms total)
T0520 001:122 JLINK_WriteReg(R4, 0x00000000)  returns 0x00 (0000ms, 0836ms total)
T0520 001:122 JLINK_WriteReg(R5, 0x00000000)  returns 0x00 (0000ms, 0836ms total)
T0520 001:122 JLINK_WriteReg(R6, 0x00000000)  returns 0x00 (0000ms, 0836ms total)
T0520 001:122 JLINK_WriteReg(R7, 0x00041B0F)  returns 0x00 (0000ms, 0836ms total)
T0520 001:122 JLINK_WriteReg(R15 (PC), 0x08000074)  returns 0x00 (0000ms, 0836ms total)
T0520 001:122 JLINK_WriteReg(CPSR, 0x000002D3)  returns 0x00 (0000ms, 0836ms total)
T0520 001:122 JLINK_WriteReg(R8_USR, 0x00000000)  returns 0x00 (0000ms, 0836ms total)
T0520 001:122 JLINK_WriteReg(R9_USR, 0x08001408)  returns 0x00 (0000ms, 0836ms total)
T0520 001:122 JLINK_WriteReg(R10_USR, 0x00041B30)  returns 0x00 (0000ms, 0836ms total)
T0520 001:122 JLINK_WriteReg(R11_USR, 0x00041B30)  returns 0x00 (0000ms, 0836ms total)
T0520 001:122 JLINK_WriteReg(R12_USR, 0x00000000)  returns 0x00 (0000ms, 0836ms total)
T0520 001:122 JLINK_WriteReg(R13_USR, 0x08009000)  returns 0x00 (0000ms, 0836ms total)
T0520 001:122 JLINK_WriteReg(R14_USR, 0x08000000)  returns 0x00 (0000ms, 0836ms total)
T0520 001:122 JLINK_WriteReg(R8_FIQ, 0x00000000)  returns 0x00 (0000ms, 0836ms total)
T0520 001:122 JLINK_WriteReg(R9_FIQ, 0x00000000)  returns 0x00 (0000ms, 0836ms total)
T0520 001:122 JLINK_WriteReg(R10_FIQ, 0x00000000)  returns 0x00 (0001ms, 0837ms total)
T0520 001:123 JLINK_WriteReg(R11_FIQ, 0x00000000)  returns 0x00 (0000ms, 0837ms total)
T0520 001:123 JLINK_WriteReg(R12_FIQ, 0x00000000)  returns 0x00 (0000ms, 0837ms total)
T0520 001:123 JLINK_WriteReg(R13_FIQ, 0x08001200)  returns 0x00 (0000ms, 0837ms total)
T0520 001:123 JLINK_WriteReg(R14_FIQ, 0x00000024)  returns 0x00 (0000ms, 0837ms total)
T0520 001:123 JLINK_WriteReg(SPSR_FIQ, 0x000003D1)  returns 0x00 (0000ms, 0837ms total)
T0520 001:123 JLINK_WriteReg(R13_IRQ, 0x08001300)  returns 0x00 (0000ms, 0837ms total)
T0520 001:123 JLINK_WriteReg(R14_IRQ, 0x00006C74)  returns 0x00 (0000ms, 0837ms total)
T0520 001:123 JLINK_WriteReg(SPSR_IRQ, 0x8000031F)  returns 0x00 (0000ms, 0837ms total)
T0520 001:123 JLINK_WriteReg(R13_SVC, 0x08009000)  returns 0x00 (0000ms, 0837ms total)
T0520 001:123 JLINK_WriteReg(R14_SVC, 0x08000000)  returns 0x00 (0000ms, 0837ms total)
T0520 001:123 JLINK_WriteReg(SPSR_SVC, 0x000003D3)  returns 0x00 (0000ms, 0837ms total)
T0520 001:123 JLINK_WriteReg(R13_ABT, 0x08001400)  returns 0x00 (0000ms, 0837ms total)
T0520 001:123 JLINK_WriteReg(R14_ABT, 0x0003F18C)  returns 0x00 (0000ms, 0837ms total)
T0520 001:123 JLINK_WriteReg(SPSR_ABT, 0x600003DF)  returns 0x00 (0000ms, 0837ms total)
T0520 001:123 JLINK_WriteReg(R13_UND, 0x08001500)  returns 0x00 (0000ms, 0837ms total)
T0520 001:123 JLINK_WriteReg(R14_UND, 0x00000024)  returns 0x00 (0000ms, 0837ms total)
T0520 001:123 JLINK_WriteReg(SPSR_UND, 0x000003DB)  returns 0x00 (0000ms, 0837ms total)
T0520 001:123 JLINK_SetBPEx(Addr = 0x08000000, Type = 0xFFFFFFF1)  returns 0x00000004 (0000ms, 0837ms total)
T0520 001:123 JLINK_Go() >0x88 JTAG> >0x48 JTAG> >0x30 JTAG> >0x30 JTAG> >0x30 JTAG> >0x30 JTAG> >0x48 JTAG> >0x48 JTAG> >0x30 JTAG> >0x30 JTAG> >0x30 JTAG> >0x48 JTAG> >0x30 JTAG> >0x88 JTAG> >0x48 JTAG> >0x30 JTAG> >0x30 JTAG> >0x30 JTAG> >0x48 JTAG> >0x30 JTAG> >0x88 JTAG> >0x48 JTAG> >0x30 JTAG> >0x30 JTAG> >0x30 JTAG> >0x48 JTAG> >0x30 JTAG> >0x88 JTAG> >0x48 JTAG> >0x30 JTAG> >0x30 JTAG> >0x30 JTAG> >0x48 JTAG> >0x30 JTAG> >0x88 JTAG> >0x48 JTAG> >0x30 JTAG> >0x30 JTAG> >0x30 JTAG> >0x48 JTAG>
 >0x30 JTAG> (0037ms, 0874ms total)
T0520 001:160 JLINK_IsHalted()  returns TRUE (0005ms, 0879ms total)
T0520 001:165 JLINK_ReadReg(R15 (PC))  returns 0x08000000 (0000ms, 0874ms total)
T0520 001:165 JLINK_ClrBPEx(BPHandle = 0x00000004)  returns 0x00 (0000ms, 0874ms total)
T0520 001:165 JLINK_ReadReg(R0)  returns 0x00000001 (0000ms, 0874ms total)
T0520 001:165 JLINK_WriteReg(R0, 0x00008000)  returns 0x00 (0000ms, 0874ms total)
T0520 001:165 JLINK_WriteReg(R1, 0x00008000)  returns 0x00 (0000ms, 0874ms total)
T0520 001:165 JLINK_WriteReg(R2, 0x000000FF)  returns 0x00 (0000ms, 0874ms total)
T0520 001:165 JLINK_WriteReg(R3, 0x00000001)  returns 0x00 (0000ms, 0874ms total)
T0520 001:165 JLINK_WriteReg(R4, 0x00000000)  returns 0x00 (0000ms, 0874ms total)
T0520 001:165 JLINK_WriteReg(R5, 0x00000000)  returns 0x00 (0000ms, 0874ms total)
T0520 001:165 JLINK_WriteReg(R6, 0x00000000)  returns 0x00 (0000ms, 0874ms total)
T0520 001:165 JLINK_WriteReg(R7, 0x00041B0F)  returns 0x00 (0000ms, 0874ms total)
T0520 001:165 JLINK_WriteReg(R15 (PC), 0x080000B4)  returns 0x00 (0000ms, 0874ms total)
T0520 001:165 JLINK_WriteReg(CPSR, 0x000002D3)  returns 0x00 (0000ms, 0874ms total)
T0520 001:165 JLINK_WriteReg(R8_USR, 0x00000000)  returns 0x00 (0000ms, 0874ms total)
T0520 001:165 JLINK_WriteReg(R9_USR, 0x08001408)  returns 0x00 (0000ms, 0874ms total)
T0520 001:165 JLINK_WriteReg(R10_USR, 0x00041B30)  returns 0x00 (0000ms, 0874ms total)
T0520 001:165 JLINK_WriteReg(R11_USR, 0x00041B30)  returns 0x00 (0000ms, 0874ms total)
T0520 001:165 JLINK_WriteReg(R12_USR, 0x00000000)  returns 0x00 (0000ms, 0874ms total)
T0520 001:165 JLINK_WriteReg(R13_USR, 0x08009000)  returns 0x00 (0000ms, 0874ms total)
T0520 001:165 JLINK_WriteReg(R14_USR, 0x08000000)  returns 0x00 (0001ms, 0875ms total)
T0520 001:166 JLINK_WriteReg(R8_FIQ, 0x00000000)  returns 0x00 (0000ms, 0875ms total)
T0520 001:166 JLINK_WriteReg(R9_FIQ, 0x00000000)  returns 0x00 (0000ms, 0875ms total)
T0520 001:166 JLINK_WriteReg(R10_FIQ, 0x00000000)  returns 0x00 (0000ms, 0875ms total)
T0520 001:166 JLINK_WriteReg(R11_FIQ, 0x00000000)  returns 0x00 (0000ms, 0875ms total)
T0520 001:166 JLINK_WriteReg(R12_FIQ, 0x00000000)  returns 0x00 (0000ms, 0875ms total)
T0520 001:166 JLINK_WriteReg(R13_FIQ, 0x08001200)  returns 0x00 (0000ms, 0875ms total)
T0520 001:166 JLINK_WriteReg(R14_FIQ, 0x00000024)  returns 0x00 (0000ms, 0875ms total)
T0520 001:166 JLINK_WriteReg(SPSR_FIQ, 0x000003D1)  returns 0x00 (0000ms, 0875ms total)
T0520 001:166 JLINK_WriteReg(R13_IRQ, 0x08001300)  returns 0x00 (0000ms, 0875ms total)
T0520 001:166 JLINK_WriteReg(R14_IRQ, 0x00006C74)  returns 0x00 (0000ms, 0875ms total)
T0520 001:166 JLINK_WriteReg(SPSR_IRQ, 0x8000031F)  returns 0x00 (0000ms, 0875ms total)
T0520 001:166 JLINK_WriteReg(R13_SVC, 0x08009000)  returns 0x00 (0000ms, 0875ms total)
T0520 001:166 JLINK_WriteReg(R14_SVC, 0x08000000)  returns 0x00 (0000ms, 0875ms total)
T0520 001:166 JLINK_WriteReg(SPSR_SVC, 0x000003D3)  returns 0x00 (0000ms, 0875ms total)
T0520 001:166 JLINK_WriteReg(R13_ABT, 0x08001400)  returns 0x00 (0000ms, 0875ms total)
T0520 001:166 JLINK_WriteReg(R14_ABT, 0x0003F18C)  returns 0x00 (0000ms, 0875ms total)
T0520 001:166 JLINK_WriteReg(SPSR_ABT, 0x600003DF)  returns 0x00 (0000ms, 0875ms total)
T0520 001:166 JLINK_WriteReg(R13_UND, 0x08001500)  returns 0x00 (0000ms, 0875ms total)
T0520 001:166 JLINK_WriteReg(R14_UND, 0x00000024)  returns 0x00 (0000ms, 0875ms total)
T0520 001:166 JLINK_WriteReg(SPSR_UND, 0x000003DB)  returns 0x00 (0000ms, 0875ms total)
T0520 001:166 JLINK_SetBPEx(Addr = 0x08000000, Type = 0xFFFFFFF1)  returns 0x00000005 (0000ms, 0875ms total)
T0520 001:166 JLINK_Go() >0x88 JTAG> >0x48 JTAG> >0x30 JTAG> >0x30 JTAG> >0x30 JTAG> >0x30 JTAG> >0x48 JTAG> >0x48 JTAG> >0x30 JTAG> >0x30 JTAG> >0x30 JTAG> >0x48 JTAG> >0x30 JTAG> >0x88 JTAG> >0x48 JTAG> >0x30 JTAG> >0x30 JTAG> >0x30 JTAG> >0x48 JTAG> >0x30 JTAG> >0x88 JTAG> >0x48 JTAG> >0x30 JTAG> >0x30 JTAG> >0x30 JTAG> >0x48 JTAG> >0x30 JTAG> >0x88 JTAG> >0x48 JTAG> >0x30 JTAG> >0x30 JTAG> >0x30 JTAG> >0x48 JTAG> >0x30 JTAG> >0x88 JTAG> >0x48 JTAG> >0x30 JTAG> >0x30 JTAG> >0x30 JTAG> >0x48 JTAG>
 >0x30 JTAG> (0039ms, 0914ms total)
T0520 001:205 JLINK_IsHalted()  returns FALSE (0000ms, 0914ms total)
T0520 001:214 JLINK_IsHalted()  returns FALSE (0002ms, 0916ms total)
T0520 001:217 JLINK_IsHalted()  returns FALSE (0002ms, 0916ms total)
T0520 001:220 JLINK_IsHalted()  returns FALSE (0000ms, 0914ms total)
T0520 001:222 JLINK_IsHalted()  returns FALSE (0000ms, 0914ms total)
T0520 001:224 JLINK_IsHalted()  returns TRUE (0006ms, 0920ms total)
T0520 001:230 JLINK_ReadReg(R15 (PC))  returns 0x08000000 (0000ms, 0914ms total)
T0520 001:230 JLINK_ClrBPEx(BPHandle = 0x00000005)  returns 0x00 (0000ms, 0914ms total)
T0520 001:230 JLINK_ReadReg(R0)  returns 0x00000000 (0000ms, 0914ms total)
T0520 001:230 JLINK_WriteReg(R0, 0x00010000)  returns 0x00 (0000ms, 0914ms total)
T0520 001:230 JLINK_WriteReg(R1, 0x00008000)  returns 0x00 (0000ms, 0914ms total)
T0520 001:230 JLINK_WriteReg(R2, 0x000000FF)  returns 0x00 (0000ms, 0914ms total)
T0520 001:230 JLINK_WriteReg(R3, 0x00000001)  returns 0x00 (0000ms, 0914ms total)
T0520 001:230 JLINK_WriteReg(R4, 0x00000000)  returns 0x00 (0000ms, 0914ms total)
T0520 001:230 JLINK_WriteReg(R5, 0x00000000)  returns 0x00 (0000ms, 0914ms total)
T0520 001:230 JLINK_WriteReg(R6, 0x00000000)  returns 0x00 (0000ms, 0914ms total)
T0520 001:230 JLINK_WriteReg(R7, 0x00041B0F)  returns 0x00 (0000ms, 0914ms total)
T0520 001:230 JLINK_WriteReg(R15 (PC), 0x08000074)  returns 0x00 (0000ms, 0914ms total)
T0520 001:230 JLINK_WriteReg(CPSR, 0x000002D3)  returns 0x00 (0000ms, 0914ms total)
T0520 001:230 JLINK_WriteReg(R8_USR, 0x00000000)  returns 0x00 (0000ms, 0914ms total)
T0520 001:230 JLINK_WriteReg(R9_USR, 0x08001408)  returns 0x00 (0000ms, 0914ms total)
T0520 001:230 JLINK_WriteReg(R10_USR, 0x00041B30)  returns 0x00 (0000ms, 0914ms total)
T0520 001:230 JLINK_WriteReg(R11_USR, 0x00041B30)  returns 0x00 (0000ms, 0914ms total)
T0520 001:230 JLINK_WriteReg(R12_USR, 0x00000000)  returns 0x00 (0000ms, 0914ms total)
T0520 001:230 JLINK_WriteReg(R13_USR, 0x08009000)  returns 0x00 (0000ms, 0914ms total)
T0520 001:230 JLINK_WriteReg(R14_USR, 0x08000000)  returns 0x00 (0000ms, 0914ms total)
T0520 001:230 JLINK_WriteReg(R8_FIQ, 0x00000000)  returns 0x00 (0000ms, 0914ms total)
T0520 001:230 JLINK_WriteReg(R9_FIQ, 0x00000000)  returns 0x00 (0000ms, 0914ms total)
T0520 001:230 JLINK_WriteReg(R10_FIQ, 0x00000000)  returns 0x00 (0000ms, 0914ms total)
T0520 001:230 JLINK_WriteReg(R11_FIQ, 0x00000000)  returns 0x00 (0000ms, 0914ms total)
T0520 001:230 JLINK_WriteReg(R12_FIQ, 0x00000000)  returns 0x00 (0000ms, 0914ms total)
T0520 001:230 JLINK_WriteReg(R13_FIQ, 0x08001200)  returns 0x00 (0001ms, 0915ms total)
T0520 001:231 JLINK_WriteReg(R14_FIQ, 0x00000024)  returns 0x00 (0000ms, 0915ms total)
T0520 001:231 JLINK_WriteReg(SPSR_FIQ, 0x000003D1)  returns 0x00 (0000ms, 0915ms total)
T0520 001:231 JLINK_WriteReg(R13_IRQ, 0x08001300)  returns 0x00 (0000ms, 0915ms total)
T0520 001:231 JLINK_WriteReg(R14_IRQ, 0x00006C74)  returns 0x00 (0000ms, 0915ms total)
T0520 001:231 JLINK_WriteReg(SPSR_IRQ, 0x8000031F)  returns 0x00 (0000ms, 0915ms total)
T0520 001:231 JLINK_WriteReg(R13_SVC, 0x08009000)  returns 0x00 (0000ms, 0915ms total)
T0520 001:231 JLINK_WriteReg(R14_SVC, 0x08000000)  returns 0x00 (0000ms, 0915ms total)
T0520 001:231 JLINK_WriteReg(SPSR_SVC, 0x000003D3)  returns 0x00 (0000ms, 0915ms total)
T0520 001:231 JLINK_WriteReg(R13_ABT, 0x08001400)  returns 0x00 (0000ms, 0915ms total)
T0520 001:231 JLINK_WriteReg(R14_ABT, 0x0003F18C)  returns 0x00 (0000ms, 0915ms total)
T0520 001:231 JLINK_WriteReg(SPSR_ABT, 0x600003DF)  returns 0x00 (0000ms, 0915ms total)
T0520 001:231 JLINK_WriteReg(R13_UND, 0x08001500)  returns 0x00 (0000ms, 0915ms total)
T0520 001:231 JLINK_WriteReg(R14_UND, 0x00000024)  returns 0x00 (0000ms, 0915ms total)
T0520 001:231 JLINK_WriteReg(SPSR_UND, 0x000003DB)  returns 0x00 (0000ms, 0915ms total)
T0520 001:231 JLINK_SetBPEx(Addr = 0x08000000, Type = 0xFFFFFFF1)  returns 0x00000006 (0000ms, 0915ms total)
T0520 001:231 JLINK_Go() >0x88 JTAG> >0x48 JTAG> >0x30 JTAG> >0x30 JTAG> >0x30 JTAG> >0x30 JTAG> >0x48 JTAG> >0x48 JTAG> >0x30 JTAG> >0x30 JTAG> >0x30 JTAG> >0x48 JTAG> >0x30 JTAG> >0x88 JTAG> >0x48 JTAG> >0x30 JTAG> >0x30 JTAG> >0x30 JTAG> >0x48 JTAG> >0x30 JTAG> >0x88 JTAG> >0x48 JTAG> >0x30 JTAG> >0x30 JTAG> >0x30 JTAG> >0x48 JTAG> >0x30 JTAG> >0x88 JTAG> >0x48 JTAG> >0x30 JTAG> >0x30 JTAG> >0x30 JTAG> >0x48 JTAG> >0x30 JTAG> >0x88 JTAG> >0x48 JTAG> >0x30 JTAG> >0x30 JTAG> >0x30 JTAG> >0x48 JTAG>
 >0x30 JTAG> (0042ms, 0957ms total)
T0520 001:273 JLINK_IsHalted()  returns TRUE (0006ms, 0963ms total)
T0520 001:279 JLINK_ReadReg(R15 (PC))  returns 0x08000000 (0000ms, 0957ms total)
T0520 001:279 JLINK_ClrBPEx(BPHandle = 0x00000006)  returns 0x00 (0000ms, 0957ms total)
T0520 001:279 JLINK_ReadReg(R0)  returns 0x00000001 (0000ms, 0957ms total)
T0520 001:279 JLINK_WriteReg(R0, 0x00010000)  returns 0x00 (0000ms, 0957ms total)
T0520 001:279 JLINK_WriteReg(R1, 0x00008000)  returns 0x00 (0001ms, 0958ms total)
T0520 001:280 JLINK_WriteReg(R2, 0x000000FF)  returns 0x00 (0000ms, 0958ms total)
T0520 001:280 JLINK_WriteReg(R3, 0x00000001)  returns 0x00 (0000ms, 0958ms total)
T0520 001:280 JLINK_WriteReg(R4, 0x00000000)  returns 0x00 (0000ms, 0958ms total)
T0520 001:280 JLINK_WriteReg(R5, 0x00000000)  returns 0x00 (0000ms, 0958ms total)
T0520 001:280 JLINK_WriteReg(R6, 0x00000000)  returns 0x00 (0000ms, 0958ms total)
T0520 001:280 JLINK_WriteReg(R7, 0x00041B0F)  returns 0x00 (0000ms, 0958ms total)
T0520 001:280 JLINK_WriteReg(R15 (PC), 0x080000B4)  returns 0x00 (0001ms, 0959ms total)
T0520 001:281 JLINK_WriteReg(CPSR, 0x000002D3)  returns 0x00 (0000ms, 0959ms total)
T0520 001:281 JLINK_WriteReg(R8_USR, 0x00000000)  returns 0x00 (0000ms, 0959ms total)
T0520 001:281 JLINK_WriteReg(R9_USR, 0x08001408)  returns 0x00 (0000ms, 0959ms total)
T0520 001:281 JLINK_WriteReg(R10_USR, 0x00041B30)  returns 0x00 (0000ms, 0959ms total)
T0520 001:281 JLINK_WriteReg(R11_USR, 0x00041B30)  returns 0x00 (0000ms, 0959ms total)
T0520 001:281 JLINK_WriteReg(R12_USR, 0x00000000)  returns 0x00 (0000ms, 0959ms total)
T0520 001:282 JLINK_WriteReg(R13_USR, 0x08009000)  returns 0x00 (0000ms, 0960ms total)
T0520 001:282 JLINK_WriteReg(R14_USR, 0x08000000)  returns 0x00 (0000ms, 0960ms total)
T0520 001:282 JLINK_WriteReg(R8_FIQ, 0x00000000)  returns 0x00 (0000ms, 0960ms total)
T0520 001:282 JLINK_WriteReg(R9_FIQ, 0x00000000)  returns 0x00 (0000ms, 0960ms total)
T0520 001:282 JLINK_WriteReg(R10_FIQ, 0x00000000)  returns 0x00 (0000ms, 0960ms total)
T0520 001:282 JLINK_WriteReg(R11_FIQ, 0x00000000)  returns 0x00 (0000ms, 0960ms total)
T0520 001:282 JLINK_WriteReg(R12_FIQ, 0x00000000)  returns 0x00 (0001ms, 0961ms total)
T0520 001:283 JLINK_WriteReg(R13_FIQ, 0x08001200)  returns 0x00 (0000ms, 0961ms total)
T0520 001:283 JLINK_WriteReg(R14_FIQ, 0x00000024)  returns 0x00 (0000ms, 0961ms total)
T0520 001:283 JLINK_WriteReg(SPSR_FIQ, 0x000003D1)  returns 0x00 (0000ms, 0961ms total)
T0520 001:283 JLINK_WriteReg(R13_IRQ, 0x08001300)  returns 0x00 (0000ms, 0961ms total)
T0520 001:283 JLINK_WriteReg(R14_IRQ, 0x00006C74)  returns 0x00 (0000ms, 0961ms total)
T0520 001:283 JLINK_WriteReg(SPSR_IRQ, 0x8000031F)  returns 0x00 (0000ms, 0961ms total)
T0520 001:283 JLINK_WriteReg(R13_SVC, 0x08009000)  returns 0x00 (0001ms, 0962ms total)
T0520 001:284 JLINK_WriteReg(R14_SVC, 0x08000000)  returns 0x00 (0000ms, 0962ms total)
T0520 001:284 JLINK_WriteReg(SPSR_SVC, 0x000003D3)  returns 0x00 (0000ms, 0962ms total)
T0520 001:284 JLINK_WriteReg(R13_ABT, 0x08001400)  returns 0x00 (0000ms, 0962ms total)
T0520 001:284 JLINK_WriteReg(R14_ABT, 0x0003F18C)  returns 0x00 (0000ms, 0962ms total)
T0520 001:284 JLINK_WriteReg(SPSR_ABT, 0x600003DF)  returns 0x00 (0000ms, 0962ms total)
T0520 001:284 JLINK_WriteReg(R13_UND, 0x08001500)  returns 0x00 (0001ms, 0963ms total)
T0520 001:285 JLINK_WriteReg(R14_UND, 0x00000024)  returns 0x00 (0000ms, 0963ms total)
T0520 001:285 JLINK_WriteReg(SPSR_UND, 0x000003DB)  returns 0x00 (0000ms, 0963ms total)
T0520 001:285 JLINK_SetBPEx(Addr = 0x08000000, Type = 0xFFFFFFF1)  returns 0x00000007 (0000ms, 0963ms total)
T0520 001:285 JLINK_Go() >0x88 JTAG> >0x48 JTAG> >0x30 JTAG> >0x30 JTAG> >0x30 JTAG> >0x30 JTAG> >0x48 JTAG> >0x48 JTAG> >0x30 JTAG> >0x30 JTAG> >0x30 JTAG> >0x48 JTAG> >0x30 JTAG> >0x88 JTAG> >0x48 JTAG> >0x30 JTAG> >0x30 JTAG> >0x30 JTAG> >0x48 JTAG> >0x30 JTAG> >0x88 JTAG> >0x48 JTAG> >0x30 JTAG> >0x30 JTAG> >0x30 JTAG> >0x48 JTAG> >0x30 JTAG> >0x88 JTAG> >0x48 JTAG> >0x30 JTAG> >0x30 JTAG> >0x30 JTAG> >0x48 JTAG> >0x30 JTAG> >0x88 JTAG> >0x48 JTAG> >0x30 JTAG> >0x30 JTAG> >0x30 JTAG> >0x48 JTAG>
 >0x30 JTAG> (0050ms, 1013ms total)
T0520 001:335 JLINK_IsHalted()  returns FALSE (0001ms, 1014ms total)
T0520 001:367 JLINK_IsHalted()  returns TRUE (0006ms, 1019ms total)
T0520 001:373 JLINK_ReadReg(R15 (PC))  returns 0x08000000 (0000ms, 1013ms total)
T0520 001:373 JLINK_ClrBPEx(BPHandle = 0x00000007)  returns 0x00 (0000ms, 1013ms total)
T0520 001:373 JLINK_ReadReg(R0)  returns 0x00000000 (0000ms, 1013ms total)
T0520 001:374 JLINK_WriteReg(R0, 0x00018000)  returns 0x00 (0000ms, 1013ms total)
T0520 001:374 JLINK_WriteReg(R1, 0x00008000)  returns 0x00 (0000ms, 1013ms total)
T0520 001:374 JLINK_WriteReg(R2, 0x000000FF)  returns 0x00 (0000ms, 1013ms total)
T0520 001:375 JLINK_WriteReg(R3, 0x00000001)  returns 0x00 (0000ms, 1013ms total)
T0520 001:375 JLINK_WriteReg(R4, 0x00000000)  returns 0x00 (0000ms, 1013ms total)
T0520 001:375 JLINK_WriteReg(R5, 0x00000000)  returns 0x00 (0000ms, 1013ms total)
T0520 001:375 JLINK_WriteReg(R6, 0x00000000)  returns 0x00 (0000ms, 1013ms total)
T0520 001:375 JLINK_WriteReg(R7, 0x00041B0F)  returns 0x00 (0000ms, 1013ms total)
T0520 001:375 JLINK_WriteReg(R15 (PC), 0x08000074)  returns 0x00 (0000ms, 1013ms total)
T0520 001:375 JLINK_WriteReg(CPSR, 0x000002D3)  returns 0x00 (0000ms, 1013ms total)
T0520 001:375 JLINK_WriteReg(R8_USR, 0x00000000)  returns 0x00 (0000ms, 1013ms total)
T0520 001:375 JLINK_WriteReg(R9_USR, 0x08001408)  returns 0x00 (0000ms, 1013ms total)
T0520 001:375 JLINK_WriteReg(R10_USR, 0x00041B30)  returns 0x00 (0000ms, 1013ms total)
T0520 001:375 JLINK_WriteReg(R11_USR, 0x00041B30)  returns 0x00 (0000ms, 1013ms total)
T0520 001:375 JLINK_WriteReg(R12_USR, 0x00000000)  returns 0x00 (0000ms, 1013ms total)
T0520 001:375 JLINK_WriteReg(R13_USR, 0x08009000)  returns 0x00 (0000ms, 1013ms total)
T0520 001:375 JLINK_WriteReg(R14_USR, 0x08000000)  returns 0x00 (0001ms, 1014ms total)
T0520 001:376 JLINK_WriteReg(R8_FIQ, 0x00000000)  returns 0x00 (0000ms, 1014ms total)
T0520 001:376 JLINK_WriteReg(R9_FIQ, 0x00000000)  returns 0x00 (0000ms, 1014ms total)
T0520 001:376 JLINK_WriteReg(R10_FIQ, 0x00000000)  returns 0x00 (0000ms, 1014ms total)
T0520 001:376 JLINK_WriteReg(R11_FIQ, 0x00000000)  returns 0x00 (0000ms, 1014ms total)
T0520 001:376 JLINK_WriteReg(R12_FIQ, 0x00000000)  returns 0x00 (0000ms, 1014ms total)
T0520 001:376 JLINK_WriteReg(R13_FIQ, 0x08001200)  returns 0x00 (0000ms, 1014ms total)
T0520 001:376 JLINK_WriteReg(R14_FIQ, 0x00000024)  returns 0x00 (0000ms, 1014ms total)
T0520 001:376 JLINK_WriteReg(SPSR_FIQ, 0x000003D1)  returns 0x00 (0000ms, 1014ms total)
T0520 001:376 JLINK_WriteReg(R13_IRQ, 0x08001300)  returns 0x00 (0000ms, 1014ms total)
T0520 001:376 JLINK_WriteReg(R14_IRQ, 0x00006C74)  returns 0x00 (0000ms, 1014ms total)
T0520 001:376 JLINK_WriteReg(SPSR_IRQ, 0x8000031F)  returns 0x00 (0000ms, 1014ms total)
T0520 001:376 JLINK_WriteReg(R13_SVC, 0x08009000)  returns 0x00 (0000ms, 1014ms total)
T0520 001:376 JLINK_WriteReg(R14_SVC, 0x08000000)  returns 0x00 (0001ms, 1015ms total)
T0520 001:377 JLINK_WriteReg(SPSR_SVC, 0x000003D3)  returns 0x00 (0000ms, 1015ms total)
T0520 001:377 JLINK_WriteReg(R13_ABT, 0x08001400)  returns 0x00 (0000ms, 1015ms total)
T0520 001:377 JLINK_WriteReg(R14_ABT, 0x0003F18C)  returns 0x00 (0000ms, 1015ms total)
T0520 001:377 JLINK_WriteReg(SPSR_ABT, 0x600003DF)  returns 0x00 (0000ms, 1015ms total)
T0520 001:377 JLINK_WriteReg(R13_UND, 0x08001500)  returns 0x00 (0000ms, 1015ms total)
T0520 001:377 JLINK_WriteReg(R14_UND, 0x00000024)  returns 0x00 (0000ms, 1015ms total)
T0520 001:377 JLINK_WriteReg(SPSR_UND, 0x000003DB)  returns 0x00 (0000ms, 1015ms total)
T0520 001:377 JLINK_SetBPEx(Addr = 0x08000000, Type = 0xFFFFFFF1)  returns 0x00000008 (0000ms, 1015ms total)
T0520 001:377 JLINK_Go() >0x88 JTAG> >0x48 JTAG> >0x30 JTAG> >0x30 JTAG> >0x30 JTAG> >0x30 JTAG> >0x48 JTAG> >0x48 JTAG> >0x30 JTAG> >0x30 JTAG> >0x30 JTAG> >0x48 JTAG> >0x30 JTAG> >0x88 JTAG> >0x48 JTAG> >0x30 JTAG> >0x30 JTAG> >0x30 JTAG> >0x48 JTAG> >0x30 JTAG> >0x88 JTAG> >0x48 JTAG> >0x30 JTAG> >0x30 JTAG> >0x30 JTAG> >0x48 JTAG> >0x30 JTAG> >0x88 JTAG> >0x48 JTAG> >0x30 JTAG> >0x30 JTAG> >0x30 JTAG> >0x48 JTAG> >0x30 JTAG> >0x88 JTAG> >0x48 JTAG> >0x30 JTAG> >0x30 JTAG> >0x30 JTAG> >0x48 JTAG>
 >0x30 JTAG> (0040ms, 1055ms total)
